run_id	max_median_s21	max_median_s51	max_median_s101	max_average_s100	freq_EM	freq_EA	STDP-RL:AMPA:RLhebbwt	STDP-RL:AMPA:RLantiwt	STDP-RL:AMPA:RLwindhebb	STDP-RL:AMPA:RLwindanti	sim:targetedNonEM	sim:targetedRLDscntFctr	simtype:ResumeSimFromFile	sim:seeds:conn	sim:targetedRLOppFctr	critic:posRewardBias	critic:angv_bias
2371	143.0	124.0	115.0	131.85	6.221525	5.3870249999999995	0.001	-0.001	5	5	0	1.0	results/hpsearch-2022-01-02/best/2_run_5928/synWeights_final.pkl	9593185	1.0	2.0	1.0
2475	138.0	125.0	118.0	128.72	7.1575999999999995	5.5322125	0.001	-0.001	5	5	1	0.5	results/hpsearch-2022-01-02/best/1_run_3139/synWeights_final.pkl	2542033	1.0	1.5	1.0
2329	135.0	127.0	119.0	126.92	7.182787500000001	5.5242375	0.001	-0.001	5	5	0	1.0	results/hpsearch-2022-01-02/best/1_run_3139/synWeights_final.pkl	2542033	1.0	1.5	0.7
2624	152.0	118.0	110.0	125.1	7.3479	5.676525	0.001	-0.001	5	5	1	0.8	results/hpsearch-2022-01-02/best/1_run_3139/synWeights_final.pkl	2542033	1.0	2.5	0.5
2897	130.0	118.0	114.0	124.13	7.1844624999999995	5.527175	0.001	-0.001	10	10	0	1.0	results/hpsearch-2022-01-02/best/1_run_3139/synWeights_final.pkl	2542033	0.9	2.0	0.7
2463	145.0	120.0	113.0	120.84	7.2160125	5.5536	0.001	-0.001	5	5	1	0.5	results/hpsearch-2022-01-02/best/1_run_3139/synWeights_final.pkl	2542033	0.9	1.5	1.0
3213	127.0	120.0	108.0	119.61	6.343825	5.488575	0.001	-0.001	10	10	1	0.8	results/hpsearch-2022-01-02/best/2_run_5928/synWeights_final.pkl	9593185	0.8	2.5	0.7
2461	153.0	110.0	107.0	119.02	7.2630375	5.577875000000001	0.001	-0.001	5	5	1	0.5	results/hpsearch-2022-01-02/best/1_run_3139/synWeights_final.pkl	2542033	0.9	1.5	0.7
2320	142.0	119.0	106.0	118.37	7.138925	5.5354875	0.001	-0.001	5	5	0	1.0	results/hpsearch-2022-01-02/best/1_run_3139/synWeights_final.pkl	2542033	0.9	2.0	0.5
1905	141.0	118.0	113.0	117.71	7.1710875000000005	5.5865375	0.001	-0.001	3	3	1	0.5	results/hpsearch-2022-01-02/best/1_run_3139/synWeights_final.pkl	2542033	1.0	2.5	0.7
3077	130.0	121.0	105.0	117.68	6.2552625	5.4161625	0.001	-0.001	10	10	1	0.5	results/hpsearch-2022-01-02/best/2_run_5928/synWeights_final.pkl	9593185	0.9	2.0	0.7
2066	145.0	132.0	109.0	116.49	6.261525000000001	5.424025	0.001	-0.001	3	3	1	0.8	results/hpsearch-2022-01-02/best/2_run_5928/synWeights_final.pkl	9593185	0.9	1.5	0.8
2483	136.0	112.0	106.0	116.34	7.2499875000000005	5.5730875	0.001	-0.001	5	5	1	0.5	results/hpsearch-2022-01-02/best/1_run_3139/synWeights_final.pkl	2542033	1.0	2.5	1.0
3202	142.0	117.0	111.0	116.26	7.19755	5.6088875	0.001	-0.001	10	10	1	0.8	results/hpsearch-2022-01-02/best/1_run_3139/synWeights_final.pkl	2542033	1.0	2.5	0.8
3414	123.0	113.0	107.0	115.28	5.94835	4.975725	0.001	-0.001	10	10	1	1.0	results/hpsearch-2022-01-02/best/3_run_4661/synWeights_final.pkl	4902474	1.0	2.0	0.8
1510	126.0	105.0	96.0	114.16	8.9104125	7.302124999999999	0.005	-0.005	10	10	1	0.8	results/hpsearch-2022-01-02/best/2_run_5928/synWeights_final.pkl	9593185	1.0	2.5	0.8
1295	137.0	120.0	107.0	114.12	6.0264125	5.005850000000001	0.005	-0.005	10	10	0	1.0	results/hpsearch-2022-01-02/best/4_run_4662/synWeights_final.pkl	6485021	1.0	2.5	1.0
2502	134.0	118.0	104.0	114.12	6.2918875	5.4293	0.001	-0.001	5	5	1	0.5	results/hpsearch-2022-01-02/best/2_run_5928/synWeights_final.pkl	9593185	0.9	2.0	0.8
3340	125.0	119.0	102.0	114.11	7.203449999999999	5.6042499999999995	0.001	-0.001	10	10	1	1.0	results/hpsearch-2022-01-02/best/1_run_3139/synWeights_final.pkl	2542033	1.0	2.0	0.5
2611	131.0	114.0	103.0	114.06	7.3215	5.6179875	0.001	-0.001	5	5	1	0.8	results/hpsearch-2022-01-02/best/1_run_3139/synWeights_final.pkl	2542033	0.9	2.0	1.0
2082	131.0	117.0	106.0	113.33	6.3368	5.468275	0.001	-0.001	3	3	1	0.8	results/hpsearch-2022-01-02/best/2_run_5928/synWeights_final.pkl	9593185	1.0	2.0	0.8
2452	122.0	120.0	105.0	113.32	7.2622375	5.5957625	0.001	-0.001	5	5	1	0.5	results/hpsearch-2022-01-02/best/1_run_3139/synWeights_final.pkl	2542033	0.8	2.0	0.5
2887	124.0	118.0	106.0	112.51	7.1154375000000005	5.5151875	0.001	-0.001	10	10	0	1.0	results/hpsearch-2022-01-02/best/1_run_3139/synWeights_final.pkl	2542033	0.8	2.0	1.0
3222	128.0	116.0	105.0	112.33	6.34595	5.48035	0.001	-0.001	10	10	1	0.8	results/hpsearch-2022-01-02/best/2_run_5928/synWeights_final.pkl	9593185	0.9	2.0	0.8
4212	126.0	111.0	102.0	111.86	6.2305125	5.3950000000000005	0.0005	-0.0005	5	5	1	0.5	results/hpsearch-2022-01-02/best/2_run_5928/synWeights_final.pkl	9593185	0.8	1.5	0.5
2458	120.0	109.0	101.0	110.96	7.2017750000000005	5.584825	0.001	-0.001	5	5	1	0.5	results/hpsearch-2022-01-02/best/1_run_3139/synWeights_final.pkl	2542033	0.8	2.5	0.8
1734	145.0	117.0	102.0	110.67	7.1266875	5.5307625	0.001	-0.001	3	3	0	1.0	results/hpsearch-2022-01-02/best/1_run_3139/synWeights_final.pkl	2542033	0.8	2.0	0.8
773	124.0	108.0	101.0	110.41	8.0394375	6.4711	0.005	-0.005	5	5	1	0.5	results/hpsearch-2022-01-02/best/2_run_5928/synWeights_final.pkl	9593185	0.9	2.0	0.7
3065	120.0	109.0	102.0	110.04	6.3006125	5.4402124999999995	0.001	-0.001	10	10	1	0.5	results/hpsearch-2022-01-02/best/2_run_5928/synWeights_final.pkl	9593185	0.8	2.0	0.7
2500	124.0	113.0	108.0	109.41	6.2868625	5.4462125	0.001	-0.001	5	5	1	0.5	results/hpsearch-2022-01-02/best/2_run_5928/synWeights_final.pkl	9593185	0.9	2.0	0.5
1791	131.0	113.0	105.0	109.37	6.2120750000000005	5.3996125	0.001	-0.001	3	3	0	1.0	results/hpsearch-2022-01-02/best/2_run_5928/synWeights_final.pkl	9593185	1.0	1.5	1.0
2072	130.0	105.0	98.0	108.65	6.406650000000001	5.5171875	0.001	-0.001	3	3	1	0.8	results/hpsearch-2022-01-02/best/2_run_5928/synWeights_final.pkl	9593185	0.9	2.5	0.5
6260	112.0	105.0	101.0	108.48	6.2120125	5.4102375	0.0001	-0.0001	5	5	1	1.0	results/hpsearch-2022-01-02/best/2_run_5928/synWeights_final.pkl	9593185	1.0	2.5	0.5
1818	126.0	100.0	95.0	108.34	5.8153	4.8707375	0.001	-0.001	3	3	0	1.0	results/hpsearch-2022-01-02/best/3_run_4661/synWeights_final.pkl	4902474	0.9	2.0	0.8
1072	114.0	104.0	99.0	108.21	10.37715	8.0165875	0.005	-0.005	5	5	1	1.0	results/hpsearch-2022-01-02/best/2_run_5928/synWeights_final.pkl	9593185	1.0	2.0	0.5
3505	127.0	108.0	98.0	108.19	6.1865375	5.363375	0.0005	-0.0005	3	3	0	1.0	results/hpsearch-2022-01-02/best/2_run_5928/synWeights_final.pkl	9593185	0.9	1.5	0.7
2658	131.0	116.0	107.0	107.94	6.352475	5.4671875	0.001	-0.001	5	5	1	0.8	results/hpsearch-2022-01-02/best/2_run_5928/synWeights_final.pkl	9593185	1.0	2.0	0.8
2074	116.0	105.0	97.0	107.91	6.3542749999999995	5.507325	0.001	-0.001	3	3	1	0.8	results/hpsearch-2022-01-02/best/2_run_5928/synWeights_final.pkl	9593185	0.9	2.5	0.8
2418	124.0	101.0	99.0	107.86	5.8824375	4.993475	0.001	-0.001	5	5	0	1.0	results/hpsearch-2022-01-02/best/4_run_4662/synWeights_final.pkl	6485021	0.8	2.0	0.8
691	121.0	120.0	98.0	107.18	6.014425	5.0134625	0.005	-0.005	5	5	0	1.0	results/hpsearch-2022-01-02/best/4_run_4662/synWeights_final.pkl	6485021	0.8	2.0	1.0
4942	135.0	118.0	99.0	106.79	6.2736375	5.43765	0.0005	-0.0005	10	10	1	0.8	results/hpsearch-2022-01-02/best/2_run_5928/synWeights_final.pkl	9593185	0.8	2.5	0.8
6406	135.0	115.0	95.0	106.7	6.1917875	5.371287499999999	0.0001	-0.0001	10	10	0	1.0	results/hpsearch-2022-01-02/best/2_run_5928/synWeights_final.pkl	9593185	1.0	2.5	0.8
3061	119.0	105.0	100.0	105.75	6.254675000000001	5.4336875	0.001	-0.001	10	10	1	0.5	results/hpsearch-2022-01-02/best/2_run_5928/synWeights_final.pkl	9593185	0.8	1.5	0.7
3732	116.0	107.0	99.0	105.08	5.9340625000000005	5.0333	0.0005	-0.0005	3	3	1	0.5	results/hpsearch-2022-01-02/best/4_run_4662/synWeights_final.pkl	6485021	1.0	1.5	0.5
1820	117.0	106.0	94.0	104.74	5.75625	4.836125	0.001	-0.001	3	3	0	1.0	results/hpsearch-2022-01-02/best/3_run_4661/synWeights_final.pkl	4902474	0.9	2.5	0.5
6549	121.0	115.0	97.0	103.62	6.2246125	5.39065	0.0001	-0.0001	10	10	1	0.5	results/hpsearch-2022-01-02/best/2_run_5928/synWeights_final.pkl	9593185	1.0	2.5	0.7
6442	126.0	93.0	88.0	103.55	5.74775	4.852425	0.0001	-0.0001	10	10	0	1.0	results/hpsearch-2022-01-02/best/3_run_4661/synWeights_final.pkl	4902474	1.0	2.5	0.8
5325	114.0	102.0	91.0	103.42	5.8579625	5.0057875	0.0001	-0.0001	3	3	0	1.0	results/hpsearch-2022-01-02/best/4_run_4662/synWeights_final.pkl	6485021	1.0	2.5	0.7
4578	128.0	109.0	103.0	103.22	5.94365	5.0497250000000005	0.0005	-0.0005	5	5	1	1.0	results/hpsearch-2022-01-02/best/4_run_4662/synWeights_final.pkl	6485021	0.8	2.0	0.8
5152	116.0	101.0	96.0	102.38	5.9287624999999995	5.0284375	0.0005	-0.0005	10	10	1	1.0	results/hpsearch-2022-01-02/best/4_run_4662/synWeights_final.pkl	6485021	0.8	2.0	0.5
4884	117.0	104.0	96.0	101.84	5.8906	5.0091125	0.0005	-0.0005	10	10	1	0.5	results/hpsearch-2022-01-02/best/4_run_4662/synWeights_final.pkl	6485021	1.0	1.5	0.5
1596	109.0	100.0	90.0	101.21	8.6157375	6.4991	0.005	-0.005	10	10	1	1.0	results/hpsearch-2022-01-02/best/1_run_3139/synWeights_final.pkl	2542033	0.9	1.5	0.5
6761	123.0	112.0	90.0	99.6	5.932775	5.0253749999999995	0.0001	-0.0001	10	10	1	0.8	results/hpsearch-2022-01-02/best/4_run_4662/synWeights_final.pkl	6485021	1.0	2.0	0.7
6682	133.0	103.0	87.0	98.53	6.22185	5.3851875	0.0001	-0.0001	10	10	1	0.8	results/hpsearch-2022-01-02/best/2_run_5928/synWeights_final.pkl	9593185	0.9	2.5	0.8
